# Version 1.00
#
freq[Hz];mag:Trc6_S21;ang:Trc6_S21;
5.159160800000000E+09;7.526030362643421E-01;-1.724842557086660E+02;
5.159161300000000E+09;7.525813677910622E-01;-1.724875750484464E+02;
5.159161800000000E+09;7.524605555531962E-01;-1.725236523769817E+02;
5.159162300000000E+09;7.526497129327198E-01;-1.725269493875209E+02;
5.159162800000000E+09;7.525185473102201E-01;-1.725522898239448E+02;
5.159163300000000E+09;7.525002357181533E-01;-1.725722448781051E+02;
5.159163800000000E+09;7.525750545921007E-01;-1.725807792741588E+02;
5.159164300000000E+09;7.522979912385159E-01;-1.726108473722296E+02;
5.159164800000000E+09;7.526714789489451E-01;-1.726071486373698E+02;
5.159165300000000E+09;7.525787989027134E-01;-1.726384220516580E+02;
5.159165800000000E+09;7.526312566991010E-01;-1.726554990955217E+02;
5.159166300000000E+09;7.526182163394090E-01;-1.726668885925947E+02;
5.159166800000000E+09;7.525824275161267E-01;-1.727014136926553E+02;
5.159167300000000E+09;7.524052814849759E-01;-1.727136770498151E+02;
5.159167800000000E+09;7.522705040111658E-01;-1.727283707657676E+02;
5.159168300000000E+09;7.522815489702762E-01;-1.727430998559908E+02;
5.159168800000000E+09;7.522746354689808E-01;-1.727403443635096E+02;
5.159169300000000E+09;7.521564743950596E-01;-1.727775492074521E+02;
5.159169800000000E+09;7.520655589396078E-01;-1.727889663541310E+02;
5.159170300000000E+09;7.519142533453127E-01;-1.728065970497944E+02;
5.159170800000000E+09;7.519652636412962E-01;-1.728225616068910E+02;
5.159171300000000E+09;7.520754083529272E-01;-1.728385067555479E+02;
5.159171800000000E+09;7.519593617315619E-01;-1.728677965861778E+02;
5.159172300000000E+09;7.520780503746083E-01;-1.728849359839399E+02;
5.159172800000000E+09;7.520767834186677E-01;-1.729100373084918E+02;
5.159173300000000E+09;7.519680694317051E-01;-1.729022967956253E+02;
5.159173800000000E+09;7.517472910549591E-01;-1.729283619008785E+02;
5.159174300000000E+09;7.518849308368410E-01;-1.729481101064446E+02;
5.159174800000000E+09;7.517773663830919E-01;-1.729687464407881E+02;
5.159175300000000E+09;7.518366963929721E-01;-1.729842081616034E+02;
5.159175800000000E+09;7.517618435078175E-01;-1.729953970860304E+02;
5.159176300000000E+09;7.519043254731899E-01;-1.730021843817238E+02;
5.159176800000000E+09;7.517798481418871E-01;-1.730251459038696E+02;
5.159177300000000E+09;7.517472232343531E-01;-1.730630863044063E+02;
5.159177800000000E+09;7.515931982174366E-01;-1.730802343521234E+02;
5.159178300000000E+09;7.517838777444997E-01;-1.730952708583495E+02;
5.159178800000000E+09;7.517009662516423E-01;-1.731153450494023E+02;
5.159179300000000E+09;7.515455275881546E-01;-1.731197224752623E+02;
5.159179800000000E+09;7.514470007427911E-01;-1.731318795239372E+02;
5.159180300000000E+09;7.513907390538302E-01;-1.731565822014444E+02;
5.159180800000000E+09;7.514548362064264E-01;-1.731857730695442E+02;
5.159181300000000E+09;7.513241543187253E-01;-1.732041719628346E+02;
5.159181800000000E+09;7.511920790712098E-01;-1.732119876070954E+02;
5.159182300000000E+09;7.514995104186313E-01;-1.732290741589693E+02;
5.159182800000000E+09;7.512084081993848E-01;-1.732604164631026E+02;
5.159183300000000E+09;7.513467401504096E-01;-1.732703026617390E+02;
5.159183800000000E+09;7.512488631048748E-01;-1.732919647556691E+02;
5.159184300000000E+09;7.512242268180762E-01;-1.733135736158260E+02;
5.159184800000000E+09;7.510177187871857E-01;-1.733223807793271E+02;
5.159185300000000E+09;7.511698133462709E-01;-1.733340762503446E+02;
5.159185800000000E+09;7.511969058221011E-01;-1.733681642433105E+02;
5.159186300000000E+09;7.511474172966262E-01;-1.733758128657257E+02;
5.159186800000000E+09;7.510558285433351E-01;-1.733874745283227E+02;
5.159187300000000E+09;7.509140288009667E-01;-1.734091733279251E+02;
5.159187800000000E+09;7.510121860912189E-01;-1.734401344581519E+02;
5.159188300000000E+09;7.509634293637844E-01;-1.734386152214296E+02;
5.159188800000000E+09;7.506889658108501E-01;-1.734659370240874E+02;
5.159189300000000E+09;7.507141633292255E-01;-1.734742405612540E+02;
5.159189800000000E+09;7.505529028445165E-01;-1.735116986813275E+02;
5.159190300000000E+09;7.506145334598333E-01;-1.735116388736006E+02;
5.159190800000000E+09;7.506645727279339E-01;-1.735017067416451E+02;
5.159191300000000E+09;7.507380554614839E-01;-1.735508288223300E+02;
5.159191800000000E+09;7.503301504241530E-01;-1.735772881630653E+02;
5.159192300000000E+09;7.503172135103279E-01;-1.735805248159833E+02;
5.159192800000000E+09;7.502708040082526E-01;-1.735908661323228E+02;
5.159193300000000E+09;7.505342353982987E-01;-1.736152794266058E+02;
5.159193800000000E+09;7.503489518026567E-01;-1.736298507192879E+02;
5.159194300000000E+09;7.501048262268648E-01;-1.736525436883960E+02;
5.159194800000000E+09;7.503582115332492E-01;-1.736765761774736E+02;
5.159195300000000E+09;7.500963807263448E-01;-1.737007041090103E+02;
5.159195800000000E+09;7.503200974486038E-01;-1.737013081007070E+02;
5.159196300000000E+09;7.502402106989974E-01;-1.737302318834431E+02;
5.159196800000000E+09;7.501127306357681E-01;-1.737452494022694E+02;
5.159197300000000E+09;7.501791437029909E-01;-1.737607940676445E+02;
5.159197800000000E+09;7.500880810896728E-01;-1.737763324463291E+02;
5.159198300000000E+09;7.499139887464397E-01;-1.738160058396341E+02;
5.159198800000000E+09;7.499856033405823E-01;-1.738173632657991E+02;
5.159199300000000E+09;7.499545571471391E-01;-1.738245433951186E+02;
5.159199800000000E+09;7.497704534384593E-01;-1.738478721673290E+02;
5.159200300000000E+09;7.499482418252125E-01;-1.738839036096009E+02;
5.159200800000000E+09;7.498187011484201E-01;-1.738808182211889E+02;
5.159201300000000E+09;7.496415724790593E-01;-1.739000273175506E+02;
5.159201800000000E+09;7.495116402880253E-01;-1.739264764953443E+02;
5.159202300000000E+09;7.495838838662471E-01;-1.739344342755119E+02;
5.159202800000000E+09;7.496587682933670E-01;-1.739642752580317E+02;
5.159203300000000E+09;7.494172083271926E-01;-1.739691355064949E+02;
5.159203800000000E+09;7.492179338903470E-01;-1.739908455833871E+02;
5.159204300000000E+09;7.493777298485471E-01;-1.740150182257165E+02;
5.159204800000000E+09;7.494833088931195E-01;-1.740318394188724E+02;
5.159205300000000E+09;7.492596711286647E-01;-1.740715630066801E+02;
5.159205800000000E+09;7.491649247451397E-01;-1.740656300751711E+02;
5.159206300000000E+09;7.490734840109138E-01;-1.740750463339677E+02;
5.159206800000000E+09;7.490607608809998E-01;-1.740968465806092E+02;
5.159207300000000E+09;7.487118038049633E-01;-1.741167864961757E+02;
5.159207800000000E+09;7.487964261972686E-01;-1.741423025123733E+02;
5.159208300000000E+09;7.487907764718940E-01;-1.741702036551329E+02;
5.159208800000000E+09;7.486134322032796E-01;-1.741856843433683E+02;
5.159209300000000E+09;7.486330580138035E-01;-1.742111126320031E+02;
5.159209800000000E+09;7.487970305660614E-01;-1.742242165016493E+02;
5.159210300000000E+09;7.486588368779422E-01;-1.742380772908735E+02;
5.159210800000000E+09;7.485832624125384E-01;-1.742522046357390E+02;
5.159211300000000E+09;7.485138116850998E-01;-1.742902572349968E+02;
5.159211800000000E+09;7.486315941977851E-01;-1.742992188371206E+02;
5.159212300000000E+09;7.485634829056567E-01;-1.743119219726799E+02;
5.159212800000000E+09;7.486137289104301E-01;-1.743209397014622E+02;
5.159213300000000E+09;7.486349352255436E-01;-1.743654033881532E+02;
5.159213800000000E+09;7.486936305956247E-01;-1.743715088471443E+02;
5.159214300000000E+09;7.485037046712907E-01;-1.743828822741372E+02;
5.159214800000000E+09;7.484980517592663E-01;-1.744142689287985E+02;
5.159215300000000E+09;7.482849108205948E-01;-1.744441033548416E+02;
5.159215800000000E+09;7.482500109248399E-01;-1.744552335836334E+02;
5.159216300000000E+09;7.481188866398141E-01;-1.744640173334049E+02;
5.159216800000000E+09;7.482414363236609E-01;-1.744801756387496E+02;
5.159217300000000E+09;7.481982191601494E-01;-1.745003652137905E+02;
5.159217800000000E+09;7.480281376360125E-01;-1.745357361345440E+02;
5.159218300000000E+09;7.478774456838765E-01;-1.745406838629594E+02;
5.159218800000000E+09;7.479282459415922E-01;-1.745778735444194E+02;
5.159219300000000E+09;7.478537887069198E-01;-1.745857894783837E+02;
5.159219800000000E+09;7.477191334250584E-01;-1.746029537449389E+02;
5.159220300000000E+09;7.478736549370593E-01;-1.746151823319900E+02;
5.159220800000000E+09;7.478865609788267E-01;-1.746313783267053E+02;
5.159221300000000E+09;7.478359275264328E-01;-1.746668308079434E+02;
5.159221800000000E+09;7.476167682829008E-01;-1.746675602464606E+02;
5.159222300000000E+09;7.476621072723550E-01;-1.746785967614482E+02;
5.159222800000000E+09;7.476201392600523E-01;-1.747040753777924E+02;
5.159223300000000E+09;7.474467586733711E-01;-1.747285387879209E+02;
5.159223800000000E+09;7.474059256186525E-01;-1.747421442456056E+02;
5.159224300000000E+09;7.472449281305147E-01;-1.747705270289914E+02;
5.159224800000000E+09;7.473864117028322E-01;-1.747955572405768E+02;
5.159225300000000E+09;7.472112835565672E-01;-1.748131338538803E+02;
5.159225800000000E+09;7.471134370422298E-01;-1.748413114267013E+02;
5.159226300000000E+09;7.471093010391168E-01;-1.748483041179620E+02;
5.159226800000000E+09;7.473072781354686E-01;-1.748593483135445E+02;
5.159227300000000E+09;7.471193394941326E-01;-1.748871858634981E+02;
5.159227800000000E+09;7.472028696381841E-01;-1.748976186315028E+02;
5.159228300000000E+09;7.470251699416459E-01;-1.749266733373417E+02;
5.159228800000000E+09;7.469329695460356E-01;-1.749470711341217E+02;
5.159229300000000E+09;7.468937855981943E-01;-1.749779556526280E+02;
5.159229800000000E+09;7.467566812010407E-01;-1.749757524520821E+02;
5.159230300000000E+09;7.467134473363454E-01;-1.750139157465087E+02;
5.159230800000000E+09;7.467492465017468E-01;-1.750247254645946E+02;
5.159231300000000E+09;7.465195181171270E-01;-1.750377975086695E+02;
5.159231800000000E+09;7.466769519004894E-01;-1.750691774405111E+02;
5.159232300000000E+09;7.465988442351602E-01;-1.750863187517423E+02;
5.159232800000000E+09;7.465988127752896E-01;-1.751048483920553E+02;
5.159233300000000E+09;7.463262446659865E-01;-1.751160998464326E+02;
5.159233800000000E+09;7.462411681255053E-01;-1.751404793312319E+02;
5.159234300000000E+09;7.463011717334758E-01;-1.751541986332715E+02;
5.159234800000000E+09;7.461262764032610E-01;-1.751775675308754E+02;
5.159235300000000E+09;7.459844549587938E-01;-1.751906300863140E+02;
5.159235800000000E+09;7.460059175495006E-01;-1.752176562619946E+02;
5.159236300000000E+09;7.460449141977566E-01;-1.752304169636469E+02;
5.159236800000000E+09;7.461111667528203E-01;-1.752447347425287E+02;
5.159237300000000E+09;7.460706022373909E-01;-1.752841899332439E+02;
5.159237800000000E+09;7.460415567787850E-01;-1.753027208472207E+02;
5.159238300000000E+09;7.456516237821175E-01;-1.753192414425003E+02;
5.159238800000000E+09;7.457635083625450E-01;-1.753539705083375E+02;
5.159239300000000E+09;7.457835592427571E-01;-1.753603294564836E+02;
5.159239800000000E+09;7.457780906996077E-01;-1.753892337766560E+02;
5.159240300000000E+09;7.458065573784343E-01;-1.754004446945818E+02;
5.159240800000000E+09;7.456047486311999E-01;-1.754245687176625E+02;
5.159241300000000E+09;7.456417269287963E-01;-1.754299548591431E+02;
5.159241800000000E+09;7.455013064119874E-01;-1.754727565200780E+02;
5.159242300000000E+09;7.454642485499756E-01;-1.754846304117928E+02;
5.159242800000000E+09;7.453299145053186E-01;-1.755103247851148E+02;
5.159243300000000E+09;7.453652432781819E-01;-1.755285488799888E+02;
5.159243800000000E+09;7.452461440202294E-01;-1.755406293194045E+02;
5.159244300000000E+09;7.453944196182793E-01;-1.755822183147896E+02;
5.159244800000000E+09;7.452272233463076E-01;-1.755870536901092E+02;
5.159245300000000E+09;7.450941665237691E-01;-1.756279324075336E+02;
5.159245800000000E+09;7.450136590186339E-01;-1.756322334624660E+02;
5.159246300000000E+09;7.450401670102509E-01;-1.756401617554977E+02;
5.159246800000000E+09;7.448122871411691E-01;-1.756811269811055E+02;
5.159247300000000E+09;7.447899140809739E-01;-1.756979989415181E+02;
5.159247800000000E+09;7.446671640654399E-01;-1.757246365115134E+02;
5.159248300000000E+09;7.446395709826410E-01;-1.757428517393163E+02;
5.159248800000000E+09;7.445860761448723E-01;-1.757488724186859E+02;
5.159249300000000E+09;7.444770648942864E-01;-1.757823750716318E+02;
5.159249800000000E+09;7.446264704707983E-01;-1.757815730678364E+02;
5.159250300000000E+09;7.443605167424007E-01;-1.757967576632951E+02;
5.159250800000000E+09;7.442435663372758E-01;-1.758146334742072E+02;
5.159251300000000E+09;7.442832701065626E-01;-1.758480421217407E+02;
5.159251800000000E+09;7.440688179434786E-01;-1.758807128820660E+02;
5.159252300000000E+09;7.439921601395171E-01;-1.758905120861409E+02;
5.159252800000000E+09;7.441540591953956E-01;-1.759133897313652E+02;
5.159253300000000E+09;7.440205258252675E-01;-1.759242149013787E+02;
5.159253800000000E+09;7.441485887566719E-01;-1.759361273482429E+02;
5.159254300000000E+09;7.441437182926764E-01;-1.759756656962808E+02;
5.159254800000000E+09;7.438923553998413E-01;-1.759833858996123E+02;
5.159255300000000E+09;7.438914003479884E-01;-1.760210406252245E+02;
5.159255800000000E+09;7.435068234692176E-01;-1.760470127858023E+02;
5.159256300000000E+09;7.432877758601094E-01;-1.760573522927424E+02;
5.159256800000000E+09;7.432957903796534E-01;-1.760834623987172E+02;
5.159257300000000E+09;7.434035917434625E-01;-1.761068845976914E+02;
5.159257800000000E+09;7.432787026186849E-01;-1.761119829305196E+02;
5.159258300000000E+09;7.436709809878482E-01;-1.761284273164169E+02;
5.159258800000000E+09;7.436281683992279E-01;-1.761662897486676E+02;
5.159259300000000E+09;7.434969010034979E-01;-1.761856479530254E+02;
5.159259800000000E+09;7.433914222198978E-01;-1.761877090365981E+02;
5.159260300000000E+09;7.433961682859904E-01;-1.762264320989580E+02;
5.159260800000000E+09;7.434904152133960E-01;-1.762423879672437E+02;
5.159261300000000E+09;7.435305963824206E-01;-1.762612954288315E+02;
5.159261800000000E+09;7.434831106570293E-01;-1.762875141818497E+02;
5.159262300000000E+09;7.434425363175283E-01;-1.762717557329130E+02;
5.159262800000000E+09;7.429794441488966E-01;-1.763362677394274E+02;
5.159263300000000E+09;7.429496351844574E-01;-1.763370873436610E+02;
5.159263800000000E+09;7.430963540567315E-01;-1.763593058318656E+02;
5.159264300000000E+09;7.427651247011534E-01;-1.763735751032275E+02;
5.159264800000000E+09;7.427831423596917E-01;-1.764133876053293E+02;
5.159265300000000E+09;7.429051156596213E-01;-1.764185638048447E+02;
5.159265800000000E+09;7.425923210670951E-01;-1.764363657198603E+02;
5.159266300000000E+09;7.423735235343007E-01;-1.764471305447377E+02;
5.159266800000000E+09;7.425657712564749E-01;-1.764900043288044E+02;
5.159267300000000E+09;7.423167908491393E-01;-1.764960277829538E+02;
5.159267800000000E+09;7.422675139870418E-01;-1.765252418837704E+02;
5.159268300000000E+09;7.421469208045355E-01;-1.765542281208111E+02;
5.159268800000000E+09;7.420982337203303E-01;-1.765595871680467E+02;
5.159269300000000E+09;7.420020471171409E-01;-1.766037303482637E+02;
5.159269800000000E+09;7.420099865947748E-01;-1.766202920706724E+02;
5.159270300000000E+09;7.420278580558333E-01;-1.766427783816391E+02;
5.159270800000000E+09;7.420291082997830E-01;-1.766679956640468E+02;
5.159271300000000E+09;7.418143355664032E-01;-1.766852973497289E+02;
5.159271800000000E+09;7.420029338740757E-01;-1.767008235363105E+02;
5.159272300000000E+09;7.417106623617622E-01;-1.767273396701498E+02;
5.159272800000000E+09;7.415895595835992E-01;-1.767575306454302E+02;
5.159273300000000E+09;7.416577927893493E-01;-1.767641659358699E+02;
5.159273800000000E+09;7.414512676466378E-01;-1.767987947002077E+02;
5.159274300000000E+09;7.412800025598462E-01;-1.768069835518200E+02;
5.159274800000000E+09;7.413356383225667E-01;-1.768334710755842E+02;
5.159275300000000E+09;7.412374902952388E-01;-1.768313508397267E+02;
5.159275800000000E+09;7.411983993822728E-01;-1.768813439428786E+02;
5.159276300000000E+09;7.412531145168886E-01;-1.769132693274109E+02;
5.159276800000000E+09;7.411693536359732E-01;-1.769140207681075E+02;
5.159277300000000E+09;7.411582696557262E-01;-1.769468126321359E+02;
5.159277800000000E+09;7.409554934693554E-01;-1.769671825925288E+02;
5.159278300000000E+09;7.408451393194498E-01;-1.769866357454580E+02;
5.159278800000000E+09;7.405182698576591E-01;-1.770273596865325E+02;
5.159279300000000E+09;7.400474890584343E-01;-1.770356567085578E+02;
5.159279800000000E+09;7.403130514381155E-01;-1.770725360227653E+02;
5.159280300000000E+09;7.401217475125857E-01;-1.771057614967690E+02;
5.159280800000000E+09;7.401136368771363E-01;-1.771173147265602E+02;
5.159281300000000E+09;7.402503096534779E-01;-1.771384408309171E+02;
5.159281800000000E+09;7.400853854557342E-01;-1.771483511091710E+02;
5.159282300000000E+09;7.400699085091903E-01;-1.771613069277011E+02;
5.159282800000000E+09;7.400841414387942E-01;-1.771696907132481E+02;
5.159283300000000E+09;7.395143137251039E-01;-1.772287624595091E+02;
5.159283800000000E+09;7.391375523311944E-01;-1.772630539983462E+02;
5.159284300000000E+09;7.392572141684055E-01;-1.772743824128271E+02;
5.159284800000000E+09;7.387515554894083E-01;-1.772941366737345E+02;
5.159285300000000E+09;7.360874136235693E-01;-1.773502943671473E+02;
5.159285800000000E+09;7.359109406362995E-01;-1.773783479512221E+02;
5.159286300000000E+09;7.357008703983854E-01;-1.773868817420557E+02;
5.159286800000000E+09;7.358668280093181E-01;-1.774166480753838E+02;
5.159287300000000E+09;7.361609254562790E-01;-1.774490570033458E+02;
5.159287800000000E+09;7.365649763202241E-01;-1.775094731015544E+02;
5.159288300000000E+09;7.366138856495358E-01;-1.775363541480974E+02;
5.159288800000000E+09;7.368036439403844E-01;-1.775241606305010E+02;
5.159289300000000E+09;7.367584625723698E-01;-1.775439898586958E+02;
5.159289800000000E+09;7.365707157795972E-01;-1.775721002380920E+02;
5.159290300000000E+09;7.364176982017645E-01;-1.775885127697948E+02;
5.159290800000000E+09;7.365929229395103E-01;-1.776217634630780E+02;
5.159291300000000E+09;7.365169028300866E-01;-1.776346525398442E+02;
5.159291800000000E+09;7.367934648352839E-01;-1.776527750763667E+02;
5.159292300000000E+09;7.368390285414805E-01;-1.776530852075176E+02;
5.159292800000000E+09;7.366354870924210E-01;-1.776946789085649E+02;
5.159293300000000E+09;7.365641334909661E-01;-1.777242515554532E+02;
5.159293800000000E+09;7.364409918516822E-01;-1.777301426084420E+02;
5.159294300000000E+09;7.362754738936023E-01;-1.777537826691847E+02;
5.159294800000000E+09;7.365841000743613E-01;-1.777604843184089E+02;
5.159295300000000E+09;7.366567019327577E-01;-1.777847373307868E+02;
5.159295800000000E+09;7.363126514138162E-01;-1.777935127214862E+02;
5.159296300000000E+09;7.365229194349003E-01;-1.778291630369743E+02;
5.159296800000000E+09;7.363357287458101E-01;-1.778322320201463E+02;
5.159297300000000E+09;7.365531015210376E-01;-1.778843572406136E+02;
5.159297800000000E+09;7.364149447751509E-01;-1.778961305389261E+02;
5.159298300000000E+09;7.362790320083475E-01;-1.779347489147325E+02;
5.159298800000000E+09;7.359874169093495E-01;-1.779547859675561E+02;
5.159299300000000E+09;7.362500784003893E-01;-1.779815711359853E+02;
5.159299800000000E+09;7.359534277291352E-01;-1.779915704877130E+02;
5.159300300000000E+09;7.356285514452394E-01;-1.780237924340898E+02;
5.159300800000000E+09;7.354805252005382E-01;-1.780338811112001E+02;
5.159301300000000E+09;7.355497958276340E-01;-1.780562955920492E+02;
5.159301800000000E+09;7.353084938087632E-01;-1.780956888188652E+02;
5.159302300000000E+09;7.353539427958222E-01;-1.781221244454442E+02;
5.159302800000000E+09;7.351095757431954E-01;-1.781218536671550E+02;
5.159303300000000E+09;7.354463215032410E-01;-1.781526249857196E+02;
5.159303800000000E+09;7.355345231181196E-01;-1.781690655215139E+02;
5.159304300000000E+09;7.255509593153350E-01;-1.783051871443452E+02;
5.159304800000000E+09;7.256354624725126E-01;-1.783114414138148E+02;
5.159305300000000E+09;7.255289760116252E-01;-1.783520792343855E+02;
5.159305800000000E+09;7.252140975594858E-01;-1.783611011515100E+02;
5.159306300000000E+09;7.252974949011411E-01;-1.783753094718523E+02;
5.159306800000000E+09;7.253782838850193E-01;-1.783769875871389E+02;
